; CSV, generated by libsigrok4DSL 0.2.0 on Sun Nov 09 13:07:41 2025
; Channels (16/16)
; Sample rate: 50 kHz
; Sample count: 600.64 K Samples
Time(s), clock, a15, a14, a13, a12, a11, a10, a9, a8, a7, a6, a5, a4, a3, a2, a1
0.96888,1,1,0,0,0,0,0,0,0,0,0,0,0,0,0,0
0.9689,0,0,0,0,0,0,0,0,0,0,0,0,0,0,0,0
0.98008,0,1,1,1,1,1,1,1,1,1,1,1,1,1,1,1
0.9801,0,0,0,0,0,0,0,0,0,0,0,0,0,0,0,0
0.98012,0,0,0,0,1,0,0,0,0,0,0,0,0,0,0,0
0.98014,1,1,1,1,1,1,1,1,1,1,1,1,1,1,1,1
0.98302,0,0,0,0,0,0,0,0,0,0,0,0,0,0,0,0
1.00012,0,1,1,1,1,1,1,1,1,1,1,1,1,1,1,1
1.00014,0,0,0,0,0,0,0,0,0,0,0,0,0,0,0,0
1.00016,1,1,1,1,1,1,1,1,1,1,1,1,1,1,1,1
1.00316,0,0,0,0,0,0,0,0,0,0,0,0,0,0,0,0
1.00318,1,1,1,1,1,1,1,1,1,1,1,1,1,1,1,1
1.0032,0,0,0,0,0,0,0,0,0,0,0,0,0,0,0,0
1.00324,0,0,0,0,1,0,0,0,0,0,0,0,0,1,0,0
1.00326,0,0,0,0,0,0,0,0,0,0,0,0,0,0,0,0
1.0202,1,1,1,1,1,1,1,1,1,1,1,1,1,1,1,1
1.0232,0,1,1,1,1,1,1,1,1,1,1,1,1,1,1,1
1.02322,1,1,1,1,1,1,1,1,1,1,1,1,1,1,1,1
1.02326,0,0,0,0,0,0,0,0,0,0,0,0,0,0,0,0
1.02328,1,1,1,1,1,1,1,1,1,1,1,1,1,1,1,1
1.0233,0,0,0,0,0,0,0,0,0,0,0,0,0,0,0,0
1.04022,1,1,1,1,1,1,1,1,1,1,1,1,1,1,1,1
1.04026,0,1,1,1,1,1,1,1,1,1,1,1,1,1,1,1
1.04028,1,1,1,1,1,1,1,1,1,1,1,1,1,1,1,1
1.04324,0,1,1,1,1,1,1,1,1,1,1,1,1,1,1,1
1.04326,0,0,0,0,1,0,0,0,0,0,0,0,0,1,0,0
1.04328,0,0,0,0,0,0,0,0,0,0,0,0,0,0,0,0
1.06024,1,1,1,1,1,1,1,1,1,1,1,1,1,1,1,1
1.06026,0,0,0,0,0,0,0,0,0,0,0,0,0,0,0,0
1.06028,1,1,1,1,1,1,1,1,1,1,1,1,1,1,1,1
1.0633,0,0,0,0,0,0,0,0,0,0,0,0,0,0,0,0
1.06332,1,1,1,1,1,1,1,1,1,1,1,1,1,1,1,1
1.06334,0,0,0,0,0,0,0,0,0,0,0,0,0,0,0,0
1.08028,1,1,1,1,1,1,1,1,1,1,1,1,1,1,1,1
1.08032,0,0,1,1,1,1,0,1,1,1,1,1,1,1,1,1
1.08034,0,1,1,1,1,1,1,1,1,1,1,1,1,1,1,1
1.08036,1,1,1,1,1,1,1,1,1,1,1,1,1,1,1,1
1.0833,0,1,1,1,1,1,1,1,1,1,1,1,1,1,1,1
1.08334,0,0,0,0,0,0,0,0,0,0,0,0,0,0,0,0
1.08336,0,1,1,1,1,1,1,1,1,1,1,1,1,1,1,1
1.08338,0,0,0,0,0,0,0,0,0,0,0,0,0,0,0,0
1.0834,0,0,0,0,1,1,0,1,0,0,1,1,0,1,0,1
1.08342,0,0,0,0,0,0,0,0,0,0,0,0,0,0,0,0
1.10032,1,1,1,1,1,1,1,1,1,1,1,1,1,1,1,1
1.10034,0,1,1,1,1,1,1,1,1,1,1,1,1,1,1,1
1.10036,1,1,1,1,1,1,1,1,1,1,1,1,1,1,1,1
1.1033,0,1,1,1,1,1,1,1,1,1,1,1,1,1,1,1
1.10332,1,1,1,1,1,1,1,1,1,1,1,1,1,1,1,1
1.10336,0,0,0,0,0,0,0,0,0,0,0,0,0,0,0,0
1.10338,1,1,1,1,1,1,1,1,1,1,1,1,1,1,1,1
1.1034,0,0,0,0,0,0,0,0,0,0,0,0,0,0,0,0
1.10344,0,1,1,1,1,1,1,1,1,1,1,1,1,1,1,1
1.10346,0,0,0,0,0,0,0,0,0,0,0,0,0,0,0,0
1.12034,0,1,1,1,1,1,1,1,1,1,1,1,1,1,1,1
1.12036,0,0,0,0,0,0,0,0,0,0,0,0,0,0,0,0
1.12038,0,1,1,1,1,1,1,1,1,1,1,1,1,1,1,1
1.1204,1,1,1,1,1,1,1,1,1,1,1,1,1,1,1,1
1.12044,0,1,1,1,1,1,1,1,1,1,1,1,1,1,1,1
1.12046,1,1,1,1,1,1,1,1,1,1,1,1,1,1,1,1
1.12336,0,0,0,0,1,0,0,0,0,0,0,0,0,0,0,0
1.12338,0,1,1,1,1,1,1,1,1,1,1,1,1,1,1,1
1.1234,0,0,0,0,1,0,0,0,0,0,0,0,0,0,0,0
1.12342,1,1,1,1,1,1,1,1,1,1,1,1,1,1,1,1
1.12344,0,0,0,0,0,0,0,0,0,0,0,0,0,0,0,0
1.12346,0,1,1,1,1,1,1,1,1,1,1,1,1,1,1,1
1.12348,0,0,0,0,0,0,0,0,0,0,0,0,0,0,0,0
1.1404,0,1,1,1,1,1,1,1,1,1,1,1,1,1,1,1
1.14042,1,1,1,1,1,1,1,1,1,1,1,1,1,1,1,1
1.14044,0,1,1,1,1,1,1,1,1,1,1,1,1,1,1,1
1.14048,1,1,1,1,1,1,1,1,1,1,1,1,1,1,1,1
1.14348,0,1,1,1,1,1,1,1,1,1,1,1,1,1,1,1
1.1435,0,0,0,0,0,0,0,0,0,0,0,0,0,0,0,0
1.1604,0,0,0,0,1,1,0,1,0,0,1,1,0,1,0,1
1.16042,0,0,0,0,0,0,0,0,0,0,0,0,0,0,0,0
1.16044,1,1,1,1,1,1,1,1,1,1,1,1,1,1,1,1
1.16046,0,1,1,1,1,1,1,1,1,1,1,1,1,1,1,1
1.16048,1,1,1,1,1,1,1,1,1,1,1,1,1,1,1,1
1.16344,0,1,1,1,1,1,1,1,1,1,1,1,1,1,1,1
1.1635,0,0,0,0,1,1,0,1,0,1,1,1,0,1,0,1
1.16352,0,0,0,0,0,0,0,0,0,0,0,0,0,0,0,0
1.18048,1,1,1,1,1,1,1,1,1,1,1,1,1,1,1,1
1.1805,0,1,1,1,1,1,1,1,1,1,1,1,1,1,1,1
1.18052,1,1,1,1,1,1,1,1,1,1,1,1,1,1,1,1
1.1835,0,1,1,1,1,1,1,1,1,1,1,1,1,1,1,1
1.18352,0,0,0,1,1,1,0,1,1,1,1,1,0,1,1,1
1.18354,0,0,0,0,0,0,0,0,0,0,0,0,0,0,0,0
1.18358,0,0,0,1,1,1,0,1,1,1,1,1,0,1,1,1
1.1836,0,0,0,0,0,0,0,0,0,0,0,0,0,0,0,0
1.18426,0,0,1,0,1,0,0,0,0,0,0,0,0,0,0,1
1.18428,0,0,0,0,0,0,0,0,0,0,0,0,0,0,0,0
1.1843,1,1,1,1,1,1,1,1,1,1,1,1,1,1,1,1
1.18432,0,0,0,0,0,0,0,0,0,0,0,0,0,0,0,0
1.20048,0,0,0,0,1,1,0,1,0,0,1,1,0,1,0,1
1.2005,0,0,0,0,0,0,0,0,0,0,0,0,0,0,0,0
1.20052,1,1,1,1,1,1,1,1,1,1,1,1,1,1,1,1
1.20348,0,0,0,0,0,0,0,0,0,0,0,0,0,0,0,0
1.2035,1,1,1,1,1,1,1,1,1,1,1,1,1,1,1,1
1.20356,0,0,0,0,0,0,0,0,0,0,0,0,0,0,0,0
1.2036,1,1,1,1,1,1,1,1,1,1,1,1,1,1,1,1
1.20362,0,0,0,0,0,0,0,0,0,0,0,0,0,0,0,0
1.22052,0,0,0,0,1,0,0,0,0,0,0,0,0,1,0,0
1.22054,0,0,0,0,0,0,0,0,0,0,0,0,0,0,0,0
1.22058,1,1,1,1,1,1,1,1,1,1,1,1,1,1,1,1
1.22358,0,0,0,0,0,0,0,0,0,0,0,0,0,0,0,0
1.2236,1,1,1,1,1,1,1,1,1,1,1,1,1,1,1,1
1.22362,0,0,0,0,0,0,0,0,0,0,0,0,0,0,0,0
1.22364,0,0,0,0,1,0,0,0,0,0,0,1,0,1,0,1
1.22366,0,0,0,0,0,0,0,0,0,0,0,0,0,0,0,0
1.22368,0,0,0,0,1,1,0,1,1,1,1,1,0,1,1,1
1.2237,0,0,0,0,0,0,0,0,0,0,0,0,0,0,0,0
1.2242,0,0,1,0,1,1,0,1,1,1,1,1,1,1,1,1
1.22422,0,0,0,0,0,0,0,0,0,0,0,0,0,0,0,0
1.2243,1,1,0,0,0,0,0,0,0,0,0,0,0,0,0,0
1.22432,0,0,0,0,0,0,0,0,0,0,0,0,0,0,0,0
1.24058,1,1,1,1,1,1,1,1,1,1,1,1,1,1,1,1
1.24362,0,1,1,1,1,1,1,1,1,1,1,1,1,1,1,1
1.24364,0,0,0,0,0,0,0,0,0,0,0,0,0,0,0,0
1.24366,1,1,1,1,1,1,1,1,1,1,1,1,1,1,1,1
1.24368,0,0,0,0,0,0,0,0,0,0,0,0,0,0,0,0
1.24372,0,0,0,0,1,0,0,0,0,0,0,0,0,0,0,0
1.24374,0,0,0,0,0,0,0,0,0,0,0,0,0,0,0,0
1.2606,0,1,1,1,1,1,1,1,1,1,1,1,1,1,1,1
1.26066,1,1,1,1,1,1,1,1,1,1,1,1,1,1,1,1
1.26364,0,0,0,0,0,0,0,0,0,0,0,0,0,0,0,0
1.26366,1,1,1,1,1,1,1,1,1,1,1,1,1,1,1,1
1.26368,0,0,0,0,0,0,0,0,0,0,0,0,0,0,0,0
1.2637,0,0,0,0,1,1,0,1,1,1,1,1,0,1,1,1
1.26372,0,0,0,0,0,0,0,0,0,0,0,0,0,0,0,0
1.26434,0,1,0,0,0,0,0,0,0,0,0,0,0,0,0,0
1.26436,0,0,0,0,0,0,0,0,0,0,0,0,0,0,0,0
1.28064,1,1,1,1,1,1,1,1,1,1,1,1,1,1,1,1
1.28066,0,0,0,0,0,0,0,0,0,0,0,0,0,0,0,0
1.28068,1,1,1,1,1,1,1,1,1,1,1,1,1,1,1,1
1.28364,0,0,0,0,1,1,0,1,1,1,0,1,0,1,0,1
1.28366,1,1,1,1,1,1,1,1,1,1,1,1,1,1,1,1
1.28372,0,0,0,0,0,0,0,0,0,0,0,0,0,0,0,0
1.28376,0,1,1,1,1,1,1,1,1,1,1,1,1,1,1,1
1.2838,0,0,0,0,0,0,0,0,0,0,0,0,0,0,0,0
1.30066,0,0,0,0,1,1,0,1,0,0,0,1,0,1,0,1
1.30068,0,1,1,1,1,1,1,1,1,1,1,1,1,1,1,1
1.3007,0,0,0,0,0,0,0,0,0,0,0,0,0,0,0,0
1.30072,1,1,1,1,1,1,1,1,1,1,1,1,1,1,1,1
1.3037,0,0,0,0,0,0,0,0,0,0,0,0,0,0,0,0
1.30374,0,1,1,1,1,1,1,1,1,1,1,1,1,1,1,1
1.30376,1,1,1,1,1,1,1,1,1,1,1,1,1,1,1,1
1.30378,0,0,0,0,1,0,0,0,0,0,0,0,0,1,0,0
1.3038,0,0,0,0,0,0,0,0,0,0,0,0,0,0,0,0
1.30418,0,0,1,1,1,1,1,1,1,1,1,1,1,1,1,1
1.3042,0,0,0,0,0,0,0,1,1,1,1,1,1,1,1,1
1.30422,0,0,0,0,0,0,0,0,0,0,0,0,0,0,0,0
1.32076,0,1,1,1,1,1,1,1,1,1,1,1,1,1,1,1
1.32078,1,1,1,1,1,1,1,1,1,1,1,1,1,1,1,1
1.32378,0,1,1,1,1,1,1,1,1,1,1,1,1,1,1,1
1.3238,0,0,0,0,0,0,0,0,0,0,0,0,0,0,0,0
1.34072,0,1,1,1,1,1,1,1,1,1,1,1,1,1,1,1
1.34076,0,0,0,0,0,0,0,0,0,0,0,0,0,0,0,0
1.3408,1,1,1,1,1,1,1,1,1,1,1,1,1,1,1,1
1.34378,0,0,0,0,0,0,0,0,0,0,0,0,0,0,0,0
1.3438,1,1,1,1,1,1,1,1,1,1,1,1,1,1,1,1
1.34382,0,0,0,0,0,0,0,0,0,0,0,0,0,0,0,0
1.34384,0,1,1,1,1,1,1,1,1,1,1,1,1,1,1,1
1.34386,0,0,0,0,0,0,0,0,0,0,0,0,0,0,0,0
1.34418,0,0,0,0,0,0,0,0,0,1,1,1,1,1,1,0
1.3442,0,0,1,1,1,1,1,1,1,1,1,1,1,1,1,1
1.34422,0,0,0,0,0,0,0,0,0,0,0,0,0,0,0,0
1.34426,0,0,0,0,0,0,0,0,0,0,1,1,1,1,1,0
1.34428,0,0,0,0,0,0,0,0,0,0,0,0,0,0,0,0
1.3608,1,1,1,1,1,1,1,1,1,1,1,1,1,1,1,1
1.36378,0,0,0,0,0,0,0,0,0,0,0,0,0,0,0,0
1.36382,0,1,1,1,1,1,1,1,1,1,1,1,1,1,1,1
1.36384,1,1,1,1,1,1,1,1,1,1,1,1,1,1,1,1
1.36386,0,1,1,1,1,1,1,1,1,1,1,1,1,1,1,1
1.36388,0,0,0,0,0,0,0,0,0,0,0,0,0,0,0,0
1.36392,0,0,0,0,1,0,0,0,0,0,0,0,0,1,0,1
1.36394,0,0,0,0,0,0,0,0,0,0,0,0,0,0,0,0
1.38082,0,1,1,1,1,1,1,1,1,1,1,1,1,1,1,1
1.38084,0,0,0,0,1,1,0,1,0,0,0,1,0,1,0,1
1.38086,1,1,1,1,1,1,1,1,1,1,1,1,1,1,1,1
1.38384,0,0,1,1,1,1,0,1,1,1,1,1,1,1,1,1
1.38386,0,0,0,0,0,0,0,0,0,0,0,0,0,0,0,0
1.3839,1,1,1,1,1,1,1,1,1,1,1,1,1,1,1,1
1.38394,0,0,0,0,0,0,0,0,0,0,0,0,0,0,0,0
1.38426,0,0,1,1,1,1,0,1,1,1,1,1,1,1,1,1
1.38428,0,0,0,0,0,0,0,0,0,0,0,0,0,0,0,0
1.38432,0,0,0,0,0,0,0,0,1,1,1,1,1,1,1,1
1.38434,0,0,0,0,0,0,0,0,0,0,0,0,0,0,0,0
1.38444,1,1,1,1,1,1,1,1,1,1,1,1,1,1,1,1
1.38446,0,0,0,0,0,0,0,0,0,0,0,0,0,0,0,0
1.40088,1,1,1,1,1,1,1,1,1,1,1,1,1,1,1,1
1.4038,0,1,1,1,1,1,1,1,1,1,1,1,1,1,1,1
1.40382,1,1,1,1,1,1,1,1,1,1,1,1,1,1,1,1
1.40388,0,0,0,0,0,0,0,0,0,0,0,0,0,0,0,0
1.40392,0,0,0,0,0,0,0,0,0,0,1,1,0,1,0,0
1.40394,1,1,1,1,1,1,1,1,1,1,1,1,1,1,1,1
1.40396,0,1,1,1,1,1,1,1,1,1,1,1,1,1,1,1
1.40398,0,0,0,0,0,0,0,0,0,0,0,0,0,0,0,0
1.42092,1,1,1,1,1,1,1,1,1,1,1,1,1,1,1,1
1.42094,0,0,0,1,1,1,0,1,1,1,1,1,1,1,1,1
1.42096,1,1,1,1,1,1,1,1,1,1,1,1,1,1,1,1
1.42392,0,0,0,0,0,0,0,0,0,0,0,0,0,0,0,0
1.42394,1,1,1,1,1,1,1,1,1,1,1,1,1,1,1,1
1.42396,0,0,1,1,1,1,0,1,1,1,1,1,1,1,1,1
1.42398,1,1,1,1,1,1,1,1,1,1,1,1,1,1,1,1
1.424,0,0,0,0,0,0,0,0,0,0,0,0,0,0,0,0
1.42402,0,1,1,1,1,1,1,1,1,1,1,1,1,1,1,1
1.42404,0,0,0,0,0,0,0,0,0,0,0,0,0,0,0,0
1.42418,1,1,1,1,1,1,1,1,1,1,1,1,1,1,1,1
1.42422,0,0,1,1,1,1,1,1,1,1,1,1,1,1,1,1
1.42424,0,0,0,0,0,0,0,0,1,1,1,1,1,1,1,0
1.42426,1,1,1,1,1,1,1,1,1,1,1,1,1,1,1,1
1.42428,0,0,0,0,0,0,0,0,0,0,0,0,0,0,0,0
1.4243,1,1,1,1,1,1,1,1,1,1,1,1,1,1,1,1
1.42432,0,0,0,0,0,0,0,0,0,0,0,0,0,0,0,0
1.44092,1,1,1,1,1,1,1,1,1,1,1,1,1,1,1,1
1.44094,0,0,0,0,1,0,0,0,0,0,0,0,0,1,0,0
1.44096,1,1,1,1,1,1,1,1,1,1,1,1,1,1,1,1
1.441,0,1,1,1,1,1,1,1,1,1,1,1,1,1,1,1
1.44102,1,1,1,1,1,1,1,1,1,1,1,1,1,1,1,1
1.44392,0,1,1,1,1,1,1,1,1,1,1,1,1,1,1,1
1.44394,0,1,1,1,1,1,0,1,1,1,1,1,1,1,1,1
1.44396,1,1,1,1,1,1,1,1,1,1,1,1,1,1,1,1
1.444,0,0,0,0,0,0,0,0,0,0,0,0,0,0,0,0
1.44404,1,1,1,1,1,1,1,1,1,1,1,1,1,1,1,1
1.44406,0,0,0,0,0,0,0,0,0,0,0,0,0,0,0,0
1.46098,0,1,1,1,1,1,1,1,1,1,1,1,1,1,1,1
1.461,1,1,1,1,1,1,1,1,1,1,1,1,1,1,1,1
1.46102,0,0,0,0,1,0,0,0,0,0,0,0,0,1,0,1
1.46104,1,1,1,1,1,1,1,1,1,1,1,1,1,1,1,1
1.464,0,0,0,0,0,0,0,0,0,0,0,0,0,0,0,0
1.46402,1,1,1,1,1,1,1,1,1,1,1,1,1,1,1,1
1.46406,0,0,0,0,0,0,0,0,0,0,0,0,0,0,0,0
1.4641,0,0,0,0,1,1,0,1,1,1,1,1,1,1,1,1
1.46412,0,0,0,0,0,0,0,0,0,0,0,0,0,0,0,0
1.46422,1,1,1,1,1,1,1,1,1,1,1,1,1,1,1,1
1.46426,0,0,1,1,1,1,1,1,1,1,1,1,1,1,1,1
1.46428,0,0,0,0,0,0,0,0,0,1,1,1,1,1,1,0
1.4643,0,0,0,0,0,0,0,1,1,1,1,1,1,1,1,1
1.46432,1,1,1,1,1,1,1,1,1,1,1,1,1,1,1,1
1.46434,0,0,0,0,0,0,0,0,0,0,0,0,0,0,0,0
1.46438,0,1,1,1,1,1,1,1,1,1,1,1,1,1,1,1
1.4644,0,0,0,0,0,0,0,0,0,0,0,0,0,0,0,0
1.46442,0,0,0,0,0,0,0,0,1,1,1,1,1,1,1,0
1.46444,0,0,0,0,0,0,0,0,0,0,0,0,0,0,0,0
1.48098,0,1,1,1,1,1,1,1,1,1,1,1,1,1,1,1
1.481,0,0,0,0,1,0,0,0,0,0,0,0,0,0,0,0
1.48102,1,1,1,1,1,1,1,1,1,1,1,1,1,1,1,1
1.48104,0,1,1,1,1,1,1,1,1,1,1,1,1,1,1,1
1.48106,1,1,1,1,1,1,1,1,1,1,1,1,1,1,1,1
1.484,0,1,1,1,1,1,1,1,1,1,1,1,1,1,1,1
1.48402,1,1,1,1,1,1,1,1,1,1,1,1,1,1,1,1
1.48404,0,1,1,1,1,1,1,1,1,1,1,1,1,1,1,1
1.4841,0,0,0,0,0,0,0,0,0,0,0,0,0,0,0,0
1.48412,0,1,1,1,1,1,1,1,1,1,1,1,1,1,1,1
1.48414,0,0,0,0,0,0,0,0,0,0,0,0,0,0,0,0
1.50106,0,1,1,1,1,1,1,1,1,1,1,1,1,1,1,1
1.50108,1,1,1,1,1,1,1,1,1,1,1,1,1,1,1,1
1.50404,0,1,1,1,1,1,1,1,1,1,1,1,1,1,1,1
1.50408,0,0,0,0,1,1,0,1,0,0,0,1,0,1,0,1
1.5041,0,0,0,0,0,0,0,0,0,0,0,0,0,0,0,0
1.50422,1,1,1,1,1,1,1,1,1,1,1,1,1,1,1,1
1.50428,0,0,1,1,1,1,1,1,1,1,1,1,1,1,1,1
1.5043,1,1,1,1,1,1,1,1,1,1,1,1,1,1,1,1
1.50432,0,1,1,1,1,1,1,1,1,1,1,1,1,1,1,1
1.50434,0,0,1,1,1,1,1,1,1,1,1,1,1,1,1,1
1.50436,0,0,0,0,0,0,0,0,0,0,0,0,0,0,0,0
1.50438,0,0,1,1,1,1,0,1,1,1,1,1,1,1,1,1
1.5044,0,0,0,0,0,0,0,0,0,0,0,0,0,0,0,0
1.52106,0,1,1,1,1,1,1,1,1,1,1,1,1,1,1,1
1.52108,1,1,1,1,1,1,1,1,1,1,1,1,1,1,1,1
1.5211,0,0,0,0,0,0,0,0,0,0,0,0,0,0,0,0
1.52112,1,1,1,1,1,1,1,1,1,1,1,1,1,1,1,1
1.52414,0,0,0,0,0,0,0,0,0,0,0,0,0,0,0,0
1.54112,1,1,1,1,1,1,1,1,1,1,1,1,1,1,1,1
1.54114,0,0,0,0,1,1,0,1,1,1,1,1,0,1,1,1
1.54116,1,1,1,1,1,1,1,1,1,1,1,1,1,1,1,1
1.54418,0,0,0,0,0,0,0,0,0,0,0,0,0,0,0,0
1.5442,1,1,1,1,1,1,1,1,1,1,1,1,1,1,1,1
1.54426,0,0,0,0,0,0,0,0,0,1,1,1,1,1,1,0
1.54428,0,0,1,1,1,1,1,1,1,1,1,1,1,1,1,1
1.5443,0,0,0,0,0,0,0,0,1,1,1,1,1,1,1,0
1.54432,1,1,1,1,1,1,1,1,1,1,1,1,1,1,1,1
1.54434,0,0,0,0,0,0,0,1,1,1,1,1,1,1,1,1
1.54436,1,1,1,1,1,1,1,1,1,1,1,1,1,1,1,1
1.54438,0,0,1,1,1,1,1,1,1,1,1,1,1,1,1,1
1.5444,0,0,0,0,0,0,0,0,0,0,0,0,0,0,0,0
1.54444,0,0,0,0,0,0,0,0,0,0,1,1,1,1,1,0
1.54446,0,0,0,0,0,0,0,0,0,0,0,0,0,0,0,0
1.54452,0,0,1,0,1,0,0,1,1,1,1,1,1,1,1,1
1.54454,0,0,0,0,0,0,0,0,0,0,0,0,0,0,0,0
1.56068,1,0,0,0,0,0,0,0,0,0,0,0,0,0,0,0
1.56084,1,0,1,1,1,1,1,1,1,1,1,1,1,1,1,1
1.56086,1,1,1,1,1,1,1,1,1,1,1,1,1,1,1,1
1.56338,1,0,0,0,0,0,0,0,0,1,1,1,1,1,1,1
1.56344,1,1,1,1,1,1,1,1,1,1,1,1,1,1,1,1
1.56346,1,0,0,0,0,0,0,0,0,1,1,1,1,1,1,1
1.5638,0,0,0,0,0,0,0,0,0,0,0,0,0,0,0,0
1.56382,0,0,1,0,0,0,0,0,0,1,1,1,1,1,1,1
1.56386,1,0,1,0,0,0,0,0,0,1,1,1,1,1,1,1
1.5641,1,0,0,0,0,0,0,0,0,1,1,1,1,1,1,1
1.56412,1,0,1,0,0,0,0,0,0,1,1,1,1,1,1,1
1.5642,1,0,0,0,0,0,0,0,0,1,0,1,0,1,1,1
1.56422,1,0,0,0,0,0,0,0,0,0,0,0,0,0,0,0
1.56426,1,0,0,0,0,0,0,0,0,1,1,1,1,1,1,1
1.56428,1,0,1,0,0,0,0,0,0,1,1,1,1,1,1,1
1.5644,1,0,0,0,0,0,0,0,0,0,0,0,0,0,0,0
1.56442,1,0,1,0,0,0,0,0,0,1,1,1,1,1,1,1
1.56448,1,0,0,0,0,0,0,0,0,0,0,0,0,0,0,0
1.5645,1,0,1,0,0,0,0,0,0,1,1,1,1,1,1,1
1.56456,1,0,0,0,0,0,0,0,0,1,1,1,1,1,1,1
1.56458,1,0,1,0,0,0,0,0,0,1,1,1,1,1,1,1
1.56462,0,0,1,0,0,0,0,0,0,0,0,0,0,0,0,0
1.5647,1,0,1,0,0,0,0,0,0,0,0,0,0,0,0,0
1.56546,0,0,0,0,0,0,0,0,1,0,1,1,0,1,0,1
1.56552,1,0,0,0,0,0,0,0,1,0,1,1,0,1,0,1
1.56628,0,0,0,0,0,0,0,0,1,0,1,1,0,1,0,0
1.56636,1,0,0,0,0,0,0,0,1,0,1,1,0,1,0,0
1.56712,0,0,0,0,0,0,0,0,1,0,1,1,0,1,0,0
1.56718,1,0,0,0,0,0,0,0,1,0,1,1,0,1,0,0
1.56794,0,1,1,1,1,1,1,1,1,1,1,1,1,1,0,1
1.56802,1,1,1,1,1,1,1,1,1,1,1,1,1,1,0,1
1.56814,1,0,0,0,0,0,0,0,0,0,0,0,0,0,0,0
1.56876,0,0,0,0,0,0,0,0,0,0,0,0,0,0,0,0
1.56884,1,0,0,0,0,0,0,0,0,0,0,0,0,0,0,0
1.56894,0,0,0,0,0,0,0,0,0,0,0,0,0,0,0,0
1.56898,1,0,0,0,0,0,0,0,0,0,0,0,0,0,0,0
1.56908,0,0,0,0,0,0,0,0,0,0,0,0,0,0,0,0
1.56912,1,0,0,0,0,0,0,0,0,0,0,0,0,0,0,0
1.56924,0,0,0,0,0,0,0,0,0,0,0,0,0,0,0,0
1.56936,1,0,0,0,0,0,0,0,0,0,0,0,0,0,0,0
1.56948,0,0,0,0,0,0,0,0,0,0,0,0,0,0,0,0
1.56964,0,1,0,0,0,0,0,0,0,0,0,0,0,0,0,0
1.56966,1,1,0,0,0,0,0,0,0,0,0,0,0,0,0,0
1.57042,0,1,0,0,0,0,0,0,0,0,0,0,0,0,0,0
1.5705,1,1,0,0,0,0,0,0,0,0,0,0,0,0,0,0
1.57126,0,1,0,0,0,0,0,0,0,0,0,0,0,0,0,0
1.57132,1,1,0,0,0,0,0,0,0,0,0,0,0,0,0,0
1.5721,0,1,0,0,0,0,0,0,0,0,0,0,0,0,0,1
1.57216,1,1,0,0,0,0,0,0,0,0,0,0,0,0,0,1
1.57292,0,1,0,0,0,0,0,0,0,0,0,0,0,0,0,1
1.573,1,1,0,0,0,0,0,0,0,0,0,0,0,0,0,1
1.57376,0,1,0,0,0,0,0,0,0,0,0,0,0,0,0,1
1.57382,1,1,0,0,0,0,0,0,0,0,0,0,0,0,0,1
1.57458,0,0,0,0,0,0,0,0,0,0,0,0,0,0,0,0
1.57466,1,0,0,0,0,0,0,0,0,0,0,0,0,0,0,0
1.57542,0,1,0,0,0,0,0,0,0,0,0,0,0,0,1,0
1.57548,1,1,0,0,0,0,0,0,0,0,0,0,0,0,1,0
1.57624,0,1,0,0,0,0,0,0,0,0,0,0,0,0,1,0
1.57632,1,1,0,0,0,0,0,0,0,0,0,0,0,0,1,0
1.57708,0,1,0,0,0,0,0,0,0,0,0,0,0,0,1,0
1.57714,1,1,0,0,0,0,0,0,0,0,0,0,0,0,1,0
1.5779,0,1,0,0,0,0,0,0,0,0,0,0,0,0,1,1
1.57798,1,1,0,0,0,0,0,0,0,0,0,0,0,0,1,1
1.57874,0,1,0,0,0,0,0,0,0,0,0,0,0,0,1,1
1.5788,1,1,0,0,0,0,0,0,0,0,0,0,0,0,1,1
1.57956,0,0,1,0,0,1,0,1,0,1,1,1,0,1,1,0
1.57962,1,0,1,0,0,1,0,1,0,1,1,1,0,1,1,0
1.5804,0,1,0,0,0,0,0,0,0,0,0,0,0,1,0,0
1.58046,1,1,0,0,0,0,0,0,0,0,0,0,0,1,0,0
1.58122,0,1,0,0,0,0,0,0,0,0,0,0,0,1,0,0
1.58128,1,1,0,0,0,0,0,0,0,0,0,0,0,1,0,0
1.58154,1,1,1,1,1,1,1,1,1,1,1,1,1,1,1,1
1.58156,1,1,0,0,0,0,0,0,0,0,0,0,0,1,0,0
1.58162,1,1,1,1,1,1,1,1,1,1,1,1,1,1,1,1
1.58168,1,1,0,0,0,0,0,0,0,0,0,0,0,1,0,0
1.5817,1,1,1,1,1,1,0,1,1,1,1,1,1,1,1,1
1.58172,1,1,1,1,1,1,0,0,0,0,0,0,0,1,0,1
1.58174,1,1,1,1,1,1,1,1,1,1,1,1,1,1,1,1
1.5818,1,1,1,0,0,0,0,0,0,0,0,0,0,1,0,0
1.58182,1,1,1,1,1,1,1,1,1,1,1,1,1,1,1,1
1.58206,0,1,1,1,1,1,1,1,1,1,1,1,1,1,1,1
1.58212,1,1,1,1,1,1,1,1,1,1,1,1,1,1,1,1
1.58288,0,1,1,1,1,1,1,1,1,1,1,1,1,1,1,1
1.58296,1,1,1,1,1,1,1,1,1,1,1,1,1,1,1,1
1.58372,0,1,1,1,1,1,1,1,1,1,1,1,1,1,1,1
1.58378,1,1,1,1,1,1,1,1,1,1,1,1,1,1,1,1
1.58418,1,0,0,0,0,0,0,0,0,0,0,0,0,0,0,0
1.5842,1,1,1,1,1,1,1,1,1,1,1,1,1,1,1,1
1.58426,1,0,1,1,1,1,1,1,1,1,1,1,1,1,1,1
1.58428,1,1,1,1,1,1,1,1,1,1,1,1,1,1,1,1
1.58432,1,0,1,1,1,1,1,1,1,1,1,1,1,1,1,1
1.58434,1,0,0,0,0,0,0,0,0,0,0,0,0,0,0,0
1.58436,1,1,1,1,1,1,1,1,1,1,1,1,1,1,1,1
1.5844,1,0,0,0,0,0,0,0,0,0,0,0,0,0,0,0
1.58446,1,0,1,1,1,1,1,1,1,1,1,1,1,1,1,1
1.58448,1,0,0,0,0,0,0,0,0,0,1,1,0,0,0,0
1.5845,1,0,0,0,0,0,0,0,0,0,0,0,0,0,0,0
1.58452,0,0,0,0,0,0,0,0,0,0,0,0,0,0,0,0
1.58456,1,0,1,1,1,1,1,1,1,1,1,1,1,1,1,1
1.58458,0,0,0,0,0,0,0,0,0,0,0,0,0,0,0,0
1.58462,1,0,1,1,1,1,0,1,1,1,1,1,1,1,1,1
1.58464,1,0,0,0,0,0,0,0,0,0,0,0,0,0,0,0
1.58466,0,0,0,0,0,0,0,0,0,0,0,0,0,0,0,0
1.58472,1,0,0,0,0,0,0,0,0,0,0,0,0,0,0,0
1.58474,0,0,0,0,0,0,0,0,0,0,0,0,0,0,0,0
1.58476,1,0,0,0,0,0,0,0,0,0,0,0,0,0,0,0
1.58478,0,0,0,0,0,0,0,0,0,0,0,0,0,0,0,0
1.58544,1,0,0,0,0,0,0,0,0,0,0,0,0,0,0,0
1.58546,0,0,0,0,0,0,0,0,0,0,0,0,0,0,0,0
1.5871,1,0,0,0,0,0,0,0,0,0,0,0,0,0,0,0
1.58712,0,0,0,0,0,0,0,0,0,0,0,0,0,0,0,0
1.58876,1,0,0,0,0,0,0,0,0,0,0,0,0,0,0,0
1.58878,0,0,0,0,0,0,0,0,0,0,0,0,0,0,0,0
1.59708,1,0,0,0,0,0,0,0,0,0,0,0,0,0,0,0
1.5971,0,0,0,0,0,0,0,0,0,0,0,0,0,0,0,0
1.59874,1,0,0,0,0,0,0,0,0,0,0,0,0,0,0,0
1.59876,0,0,0,0,0,0,0,0,0,0,0,0,0,0,0,0
1.60094,1,0,0,0,0,0,0,0,0,0,0,0,0,0,0,0
1.60116,1,1,1,1,1,1,1,1,1,1,1,1,1,1,1,1
1.60118,0,0,0,0,0,0,0,0,0,0,0,0,0,0,0,0
1.60122,0,1,1,1,1,1,1,1,1,1,1,1,1,1,1,1
1.60124,1,0,0,0,0,0,0,0,0,0,0,0,0,0,0,0
1.60126,1,1,1,1,1,1,1,1,1,1,1,1,1,1,1,1
1.602,0,1,1,1,1,1,1,1,1,1,1,1,1,1,1,1
1.60208,1,1,1,1,1,1,1,1,1,1,1,1,1,1,1,1
1.60284,0,1,1,1,1,1,1,1,1,1,1,1,1,1,1,1
1.6029,1,1,1,1,1,1,1,1,1,1,1,1,1,1,1,1
1.60366,0,1,1,1,1,1,1,1,1,1,1,1,1,1,1,1
1.60374,1,1,1,1,1,1,1,1,1,1,1,1,1,1,1,1
1.60418,1,0,0,0,0,0,0,0,0,0,0,1,0,1,0,1
1.6042,1,1,1,1,1,1,1,1,1,1,1,1,1,1,1,1
1.60426,1,0,0,0,1,1,0,1,1,1,1,1,1,1,1,1
1.60428,1,1,1,1,1,1,1,1,1,1,1,1,1,1,1,1
1.6043,1,0,0,0,0,0,0,0,0,0,0,0,0,0,0,0
1.60432,1,1,1,1,1,1,1,1,1,1,1,1,1,1,1,1
1.60434,1,0,0,0,0,0,0,0,0,0,0,0,0,0,0,0
1.60438,1,0,0,0,1,1,0,1,0,1,0,1,1,1,1,1
1.6044,1,0,0,0,0,0,0,0,0,0,0,0,0,0,0,0
1.6045,0,0,0,0,0,0,0,0,0,0,0,0,0,0,0,0
1.60456,1,0,0,0,0,0,0,0,0,0,0,0,0,0,0,0
1.60472,0,0,0,0,0,0,0,0,0,0,0,0,0,0,0,0
1.60474,1,0,0,0,0,0,0,0,0,0,0,0,0,0,0,0
1.6048,0,0,0,0,0,0,0,0,0,0,0,0,0,0,0,0
1.60482,1,0,0,0,0,0,0,0,0,0,0,0,0,0,0,0
1.60488,0,0,0,0,0,0,0,0,0,0,0,0,0,0,0,0
1.60496,1,0,0,0,0,0,0,0,0,0,0,0,0,0,0,0
1.60498,0,0,0,0,0,0,0,0,0,0,0,0,0,0,0,0
1.60504,1,0,0,0,0,0,0,0,0,0,0,0,0,0,0,0
1.60508,0,0,0,0,0,0,0,0,0,0,0,0,0,0,0,0
1.60526,1,0,0,0,0,0,0,0,0,0,0,0,0,0,0,0
1.60528,0,0,0,0,0,0,0,0,0,0,0,0,0,0,0,0
1.6054,1,0,0,0,0,0,0,0,0,0,0,0,0,0,0,0
1.60542,0,0,0,0,0,0,0,0,0,0,0,0,0,0,0,0
1.60622,1,0,0,0,0,0,0,0,0,0,0,0,0,0,0,0
1.60624,0,0,0,0,0,0,0,0,0,0,0,0,0,0,0,0
1.60706,1,0,0,0,0,0,0,0,0,0,0,0,0,0,0,0
1.60708,0,0,0,0,0,0,0,0,0,0,0,0,0,0,0,0
1.60872,1,0,0,0,0,0,0,0,0,0,0,0,0,0,0,0
1.60874,0,0,0,0,0,0,0,0,0,0,0,0,0,0,0,0
1.61038,1,0,0,0,0,0,0,0,0,0,0,0,0,0,0,0
1.6104,0,0,0,0,0,0,0,0,0,0,0,0,0,0,0,0
1.61454,1,0,0,0,0,0,0,0,0,0,0,0,0,0,0,0
1.61456,0,0,0,0,0,0,0,0,0,0,0,0,0,0,0,0
1.61704,1,0,0,0,0,0,0,0,0,0,0,0,0,0,0,0
1.61706,0,0,0,0,0,0,0,0,0,0,0,0,0,0,0,0
1.6187,1,0,0,0,0,0,0,0,0,0,0,0,0,0,0,0
1.61872,0,0,0,0,0,0,0,0,0,0,0,0,0,0,0,0
1.62094,1,0,0,0,0,0,0,0,0,0,0,0,0,0,0,0
1.62096,0,0,0,0,0,0,0,0,0,0,0,0,0,0,0,0
1.62098,1,0,0,0,0,0,0,0,0,0,0,0,0,0,0,0
1.62114,0,0,0,0,0,0,0,0,0,0,0,0,0,0,0,0
1.62118,0,1,1,1,1,1,1,1,1,1,1,1,1,1,1,1
1.6212,1,1,1,1,1,1,1,1,1,1,1,1,1,1,1,1
1.62124,1,0,0,0,0,0,0,0,0,0,0,0,0,0,0,0
1.62126,1,1,1,1,1,1,1,1,1,1,1,1,1,1,1,1
1.62196,0,1,1,1,1,1,1,1,1,1,1,1,1,1,1,1
1.62204,1,1,1,1,1,1,1,1,1,1,1,1,1,1,1,1
1.6228,0,1,1,1,1,1,1,1,1,1,1,1,1,1,1,1
1.62286,1,1,1,1,1,1,1,1,1,1,1,1,1,1,1,1
1.62364,0,1,1,1,1,1,1,1,1,1,1,1,1,1,1,1
1.6237,1,1,1,1,1,1,1,1,1,1,1,1,1,1,1,1
1.62426,1,0,0,0,0,0,0,0,0,0,0,0,0,0,0,0
1.62428,1,1,1,1,1,1,1,1,1,1,1,1,1,1,1,1
1.62432,1,0,0,0,0,0,0,1,1,1,1,1,1,1,1,1
1.62434,1,0,1,1,1,1,1,1,1,1,1,1,1,1,1,1
1.62436,1,0,1,1,1,1,0,1,1,1,1,1,1,1,1,1
1.62438,1,1,1,1,1,1,1,1,1,1,1,1,1,1,1,1
1.62444,1,0,0,0,0,0,0,0,1,1,1,1,1,1,1,0
1.62446,0,0,0,0,1,1,0,1,1,1,1,1,1,1,1,1
1.62448,0,0,0,0,0,0,0,0,0,0,0,0,0,0,0,0
1.62454,1,1,1,1,1,1,1,1,1,1,1,1,1,1,1,1
1.62456,1,0,0,0,0,0,0,0,0,0,0,1,0,0,0,0
1.62458,1,0,0,0,0,0,0,0,0,0,0,0,0,0,0,0
1.6246,1,0,0,0,0,0,0,0,1,1,1,1,1,1,1,0
1.62462,0,0,0,0,0,0,0,0,0,0,0,0,0,0,0,0
